time	V(vi)	V(vo)
0.000000000000000e+00	0.000000e+00	0.000000e+00
9.765625114122045e-11	4.601942e-07	1.473294e-09
1.953125022824409e-10	9.203885e-07	3.429329e-09
3.906250045648818e-10	1.840777e-06	8.305864e-09
7.812500091297636e-10	3.681554e-06	2.383357e-08
1.562500018259527e-09	7.363108e-06	7.786632e-08
3.125000036519054e-09	1.472622e-05	2.768811e-07
6.250000073038109e-09	2.945243e-05	1.031170e-06
1.250000014607622e-08	5.890486e-05	3.906689e-06
2.500000029215244e-08	1.178097e-04	1.469379e-05
5.000000058430487e-08	2.356194e-04	5.342017e-05
8.767790176809624e-08	4.131724e-04	1.452730e-04
1.286660282062954e-07	6.063243e-04	2.775904e-04
1.923631091551004e-07	9.064898e-04	5.229452e-04
2.750352797740133e-07	1.296073e-03	8.802278e-04
4.068081603819017e-07	1.917038e-03	1.484508e-03
6.015213963167561e-07	2.834603e-03	2.398574e-03
9.679346905253118e-07	4.561285e-03	4.125323e-03
1.700761278942423e-06	8.014647e-03	7.578555e-03
3.166414455776646e-06	1.492137e-02	1.448513e-02
6.097720809445091e-06	2.873476e-02	2.829814e-02
1.196033351678198e-05	5.636121e-02	5.592386e-02
2.172595851678198e-05	1.023780e-01	1.019391e-01
3.149158351678199e-05	1.483909e-01	1.479502e-01
4.125720851678199e-05	1.943982e-01	1.939548e-01
5.102283351678199e-05	2.403983e-01	2.399511e-01
6.078845851678199e-05	2.863892e-01	2.859369e-01
7.055408351678199e-05	3.323694e-01	3.319099e-01
8.031970851678199e-05	3.783371e-01	3.778678e-01
9.008533351678198e-05	4.242905e-01	4.238082e-01
9.985095851678198e-05	4.702279e-01	4.697288e-01
1.096165835167820e-04	5.161477e-01	5.156280e-01
1.193822085167820e-04	5.620480e-01	5.615043e-01
1.291478335167820e-04	6.079271e-01	6.073573e-01
1.389134585167820e-04	6.537834e-01	6.531870e-01
1.486790835167820e-04	6.996151e-01	6.989939e-01
1.584447085167820e-04	7.454204e-01	7.447779e-01
1.682103335167820e-04	7.911976e-01	7.905385e-01
1.779759585167820e-04	8.369451e-01	8.362742e-01
1.877415835167820e-04	8.826610e-01	8.819830e-01
1.975072085167820e-04	9.283437e-01	9.276624e-01
2.072728335167820e-04	9.739915e-01	9.733099e-01
2.170384585167820e-04	1.019603e+00	1.018923e+00
2.268040835167821e-04	1.065175e+00	1.064499e+00
2.365697085167821e-04	1.110708e+00	1.110036e+00
2.463353335167820e-04	1.156199e+00	1.155533e+00
2.561009585167820e-04	1.201646e+00	1.200986e+00
2.658665835167821e-04	1.247048e+00	1.246394e+00
2.756322085167821e-04	1.292403e+00	1.291755e+00
2.853978335167821e-04	1.337709e+00	1.337067e+00
2.951634585167821e-04	1.382965e+00	1.382329e+00
3.049290835167821e-04	1.428169e+00	1.427539e+00
3.146947085167821e-04	1.473320e+00	1.472696e+00
3.244603335167821e-04	1.518414e+00	1.517796e+00
3.342259585167821e-04	1.563452e+00	1.562839e+00
3.439915835167821e-04	1.608431e+00	1.607824e+00
3.537572085167821e-04	1.653349e+00	1.652747e+00
3.635228335167821e-04	1.698205e+00	1.697608e+00
3.732884585167822e-04	1.742997e+00	1.742406e+00
3.830540835167822e-04	1.787723e+00	1.787137e+00
3.928197085167822e-04	1.832382e+00	1.831801e+00
4.025853335167822e-04	1.876972e+00	1.876396e+00
4.123509585167822e-04	1.921491e+00	1.920920e+00
4.221165835167822e-04	1.965938e+00	1.965372e+00
4.318822085167822e-04	2.010311e+00	2.009749e+00
4.416478335167822e-04	2.054609e+00	2.054051e+00
4.514134585167822e-04	2.098829e+00	2.098275e+00
4.611790835167822e-04	2.142970e+00	2.142421e+00
4.709447085167822e-04	2.187030e+00	2.186485e+00
4.807103335167822e-04	2.231008e+00	2.230467e+00
4.904759585167822e-04	2.274902e+00	2.274365e+00
5.002415835167822e-04	2.318710e+00	2.318178e+00
5.100072085167822e-04	2.362431e+00	2.361903e+00
5.197728335167822e-04	2.406063e+00	2.405539e+00
5.295384585167822e-04	2.449605e+00	2.449084e+00
5.393040835167822e-04	2.493054e+00	2.492537e+00
5.490697085167823e-04	2.536409e+00	2.535896e+00
5.588353335167823e-04	2.579669e+00	2.579159e+00
5.686009585167823e-04	2.622832e+00	2.622326e+00
5.783665835167823e-04	2.665896e+00	2.665393e+00
5.881322085167823e-04	2.708859e+00	2.708360e+00
5.978978335167823e-04	2.751721e+00	2.751225e+00
6.076634585167823e-04	2.794479e+00	2.793986e+00
6.174290835167823e-04	2.837132e+00	2.836642e+00
6.271947085167823e-04	2.879678e+00	2.879191e+00
6.369603335167823e-04	2.922116e+00	2.921631e+00
6.467259585167823e-04	2.964443e+00	2.963961e+00
6.564915835167824e-04	3.006659e+00	3.006180e+00
6.662572085167824e-04	3.048762e+00	3.048284e+00
6.760228335167824e-04	3.090750e+00	3.090274e+00
6.857884585167824e-04	3.132622e+00	3.132146e+00
6.955540835167824e-04	3.174375e+00	3.173900e+00
7.053197085167824e-04	3.216009e+00	3.215534e+00
7.150853335167824e-04	3.257523e+00	3.257046e+00
7.248509585167824e-04	3.298913e+00	3.298434e+00
7.346165835167824e-04	3.340179e+00	3.339696e+00
7.443822085167824e-04	3.381320e+00	3.380830e+00
7.541478335167824e-04	3.422333e+00	3.421835e+00
7.639134585167824e-04	3.463217e+00	3.462708e+00
7.736790835167825e-04	3.503971e+00	3.503447e+00
7.834447085167825e-04	3.544593e+00	3.544050e+00
7.932103335167825e-04	3.585082e+00	3.584514e+00
8.029759585167825e-04	3.625435e+00	3.624836e+00
8.127415835167825e-04	3.665653e+00	3.665014e+00
8.225072085167825e-04	3.705732e+00	3.705044e+00
8.322728335167825e-04	3.745671e+00	3.744924e+00
8.420384585167825e-04	3.785470e+00	3.784649e+00
8.518040835167825e-04	3.825126e+00	3.824215e+00
8.615697085167825e-04	3.864638e+00	3.863619e+00
8.713353335167825e-04	3.904004e+00	3.902856e+00
8.811009585167826e-04	3.943224e+00	3.941920e+00
8.908665835167826e-04	3.982295e+00	3.980807e+00
9.006322085167826e-04	4.021216e+00	4.019509e+00
9.103978335167826e-04	4.059986e+00	4.058021e+00
9.201634585167826e-04	4.098603e+00	4.096333e+00
9.299290835167826e-04	4.137065e+00	4.134436e+00
9.396947085167826e-04	4.175372e+00	4.172321e+00
9.494603335167826e-04	4.213522e+00	4.209976e+00
9.592259585167826e-04	4.251513e+00	4.247387e+00
9.689915835167826e-04	4.289344e+00	4.284540e+00
9.787572085167826e-04	4.327013e+00	4.321419e+00
9.885228335167826e-04	4.364520e+00	4.358005e+00
9.982884585167827e-04	4.401862e+00	4.394276e+00
1.008054083516783e-03	4.439038e+00	4.430211e+00
1.017819708516783e-03	4.476048e+00	4.465783e+00
1.027585333516783e-03	4.512888e+00	4.500965e+00
1.037350958516783e-03	4.549559e+00	4.535728e+00
1.047116583516783e-03	4.586059e+00	4.570037e+00
1.056882208516783e-03	4.622386e+00	4.603859e+00
1.066647833516783e-03	4.658539e+00	4.637157e+00
1.076413458516783e-03	4.694516e+00	4.669894e+00
1.086179083516783e-03	4.730317e+00	4.702031e+00
1.095944708516783e-03	4.765940e+00	4.733528e+00
1.105710333516783e-03	4.801383e+00	4.764346e+00
1.115475958516783e-03	4.836646e+00	4.794449e+00
1.125241583516783e-03	4.871726e+00	4.823802e+00
1.135007208516783e-03	4.906623e+00	4.852372e+00
1.144772833516783e-03	4.941335e+00	4.880132e+00
1.154538458516783e-03	4.975862e+00	4.907058e+00
1.164304083516783e-03	5.010201e+00	4.933131e+00
1.174069708516783e-03	5.044351e+00	4.958339e+00
1.183835333516783e-03	5.078311e+00	4.982675e+00
1.193600958516783e-03	5.112080e+00	5.006137e+00
1.203366583516783e-03	5.145657e+00	5.028729e+00
1.213132208516783e-03	5.179039e+00	5.050460e+00
1.222897833516783e-03	5.212227e+00	5.071344e+00
1.232663458516783e-03	5.245219e+00	5.091399e+00
1.242429083516783e-03	5.278013e+00	5.110645e+00
1.252194708516783e-03	5.310609e+00	5.129107e+00
1.261960333516783e-03	5.343005e+00	5.146812e+00
1.271725958516783e-03	5.375199e+00	5.163786e+00
1.281491583516783e-03	5.407191e+00	5.180058e+00
1.291257208516783e-03	5.438980e+00	5.195658e+00
1.301022833516783e-03	5.470563e+00	5.210615e+00
1.310788458516783e-03	5.501941e+00	5.224959e+00
1.320554083516783e-03	5.533112e+00	5.238718e+00
1.330319708516783e-03	5.564074e+00	5.251920e+00
1.340085333516783e-03	5.594826e+00	5.264594e+00
1.349850958516783e-03	5.625369e+00	5.276764e+00
1.359616583516783e-03	5.655699e+00	5.288456e+00
1.369382208516783e-03	5.685816e+00	5.299695e+00
1.379147833516783e-03	5.715720e+00	5.310504e+00
1.388913458516783e-03	5.745408e+00	5.320904e+00
1.398679083516783e-03	5.774879e+00	5.330915e+00
1.408444708516783e-03	5.804134e+00	5.340559e+00
1.418210333516783e-03	5.833170e+00	5.349853e+00
1.427975958516783e-03	5.861986e+00	5.358814e+00
1.437741583516783e-03	5.890582e+00	5.367459e+00
1.447507208516783e-03	5.918955e+00	5.375804e+00
1.457272833516783e-03	5.947106e+00	5.383863e+00
1.467038458516783e-03	5.975033e+00	5.391649e+00
1.476804083516783e-03	6.002736e+00	5.399177e+00
1.486569708516783e-03	6.030211e+00	5.406457e+00
1.496335333516783e-03	6.057461e+00	5.413502e+00
1.506100958516783e-03	6.084482e+00	5.420321e+00
1.515866583516783e-03	6.111274e+00	5.426926e+00
1.525632208516783e-03	6.137836e+00	5.433325e+00
1.535397833516783e-03	6.164166e+00	5.439528e+00
1.545163458516783e-03	6.190265e+00	5.445543e+00
1.554929083516783e-03	6.216130e+00	5.451378e+00
1.564694708516783e-03	6.241762e+00	5.457040e+00
1.574460333516783e-03	6.267159e+00	5.462536e+00
1.584225958516783e-03	6.292319e+00	5.467874e+00
1.593991583516783e-03	6.317243e+00	5.473058e+00
1.603757208516783e-03	6.341929e+00	5.478096e+00
1.613522833516783e-03	6.366376e+00	5.482992e+00
1.623288458516783e-03	6.390584e+00	5.487752e+00
1.633054083516783e-03	6.414550e+00	5.492382e+00
1.642819708516783e-03	6.438275e+00	5.496884e+00
1.652585333516783e-03	6.461759e+00	5.501265e+00
1.662350958516783e-03	6.484998e+00	5.505527e+00
1.672116583516783e-03	6.507994e+00	5.509676e+00
1.681882208516783e-03	6.530744e+00	5.513715e+00
1.691647833516783e-03	6.553248e+00	5.517647e+00
1.701413458516783e-03	6.575506e+00	5.521476e+00
1.711179083516783e-03	6.597517e+00	5.525205e+00
1.720944708516783e-03	6.619278e+00	5.528836e+00
1.730710333516783e-03	6.640791e+00	5.532373e+00
1.740475958516783e-03	6.662054e+00	5.535819e+00
1.750241583516783e-03	6.683066e+00	5.539176e+00
1.760007208516783e-03	6.703826e+00	5.542445e+00
1.769772833516783e-03	6.724334e+00	5.545631e+00
1.779538458516783e-03	6.744588e+00	5.548734e+00
1.789304083516783e-03	6.764589e+00	5.551757e+00
1.799069708516783e-03	6.784335e+00	5.554703e+00
1.808835333516783e-03	6.803826e+00	5.557572e+00
1.818600958516783e-03	6.823060e+00	5.560367e+00
1.828366583516783e-03	6.842038e+00	5.563088e+00
1.838132208516783e-03	6.860758e+00	5.565739e+00
1.847897833516783e-03	6.879220e+00	5.568321e+00
1.857663458516783e-03	6.897422e+00	5.570834e+00
1.867429083516783e-03	6.915365e+00	5.573281e+00
1.877194708516783e-03	6.933048e+00	5.575664e+00
1.886960333516783e-03	6.950469e+00	5.577982e+00
1.896725958516783e-03	6.967629e+00	5.580238e+00
1.906491583516783e-03	6.984527e+00	5.582433e+00
1.916257208516783e-03	7.001162e+00	5.584568e+00
1.926022833516783e-03	7.017532e+00	5.586644e+00
1.935788458516783e-03	7.033639e+00	5.588662e+00
1.945554083516783e-03	7.049481e+00	5.590625e+00
1.955319708516784e-03	7.065058e+00	5.592532e+00
1.965085333516783e-03	7.080369e+00	5.594385e+00
1.974850958516783e-03	7.095413e+00	5.596184e+00
1.984616583516783e-03	7.110189e+00	5.597932e+00
1.994382208516783e-03	7.124699e+00	5.599629e+00
2.004147833516782e-03	7.138940e+00	5.601275e+00
2.013913458516782e-03	7.152912e+00	5.602873e+00
2.023679083516782e-03	7.166615e+00	5.604423e+00
2.033444708516782e-03	7.180048e+00	5.605925e+00
2.043210333516782e-03	7.193211e+00	5.607382e+00
2.052975958516781e-03	7.206102e+00	5.608793e+00
2.062741583516781e-03	7.218723e+00	5.610160e+00
2.072507208516781e-03	7.231072e+00	5.611484e+00
2.082272833516781e-03	7.243149e+00	5.612764e+00
2.092038458516781e-03	7.254952e+00	5.614004e+00
2.101804083516780e-03	7.266483e+00	5.615202e+00
2.111569708516780e-03	7.277740e+00	5.616361e+00
2.121335333516780e-03	7.288723e+00	5.617481e+00
2.131100958516780e-03	7.299432e+00	5.618562e+00
2.140866583516780e-03	7.309866e+00	5.619605e+00
2.150632208516779e-03	7.320025e+00	5.620612e+00
2.160397833516779e-03	7.329908e+00	5.621583e+00
2.170163458516779e-03	7.339515e+00	5.622518e+00
2.179929083516779e-03	7.348846e+00	5.623418e+00
2.189694708516779e-03	7.357900e+00	5.624285e+00
2.199460333516778e-03	7.366677e+00	5.625118e+00
2.209225958516778e-03	7.375177e+00	5.625918e+00
2.218991583516778e-03	7.383399e+00	5.626687e+00
2.228757208516778e-03	7.391344e+00	5.627423e+00
2.238522833516777e-03	7.399009e+00	5.628129e+00
2.248288458516777e-03	7.406396e+00	5.628804e+00
2.258054083516777e-03	7.413505e+00	5.629449e+00
2.267819708516777e-03	7.420334e+00	5.630065e+00
2.277585333516777e-03	7.426884e+00	5.630652e+00
2.287350958516776e-03	7.433155e+00	5.631211e+00
2.297116583516776e-03	7.439145e+00	5.631742e+00
2.306882208516776e-03	7.444855e+00	5.632245e+00
2.316647833516776e-03	7.450285e+00	5.632720e+00
2.326413458516776e-03	7.455435e+00	5.633169e+00
2.336179083516775e-03	7.460304e+00	5.633591e+00
2.345944708516775e-03	7.464892e+00	5.633987e+00
2.355710333516775e-03	7.469199e+00	5.634358e+00
2.365475958516775e-03	7.473225e+00	5.634703e+00
2.375241583516775e-03	7.476969e+00	5.635022e+00
2.385007208516774e-03	7.480432e+00	5.635316e+00
2.394772833516774e-03	7.483613e+00	5.635586e+00
2.404538458516774e-03	7.486513e+00	5.635831e+00
2.414304083516774e-03	7.489130e+00	5.636052e+00
2.424069708516774e-03	7.491466e+00	5.636248e+00
2.433835333516773e-03	7.493520e+00	5.636420e+00
2.443600958516773e-03	7.495291e+00	5.636569e+00
2.453366583516773e-03	7.496781e+00	5.636693e+00
2.463132208516773e-03	7.497988e+00	5.636794e+00
2.472897833516772e-03	7.498913e+00	5.636871e+00
2.482663458516772e-03	7.499555e+00	5.636925e+00
2.492429083516772e-03	7.499915e+00	5.636955e+00
2.502194708516772e-03	7.499993e+00	5.636961e+00
2.511960333516772e-03	7.499788e+00	5.636944e+00
2.521725958516771e-03	7.499301e+00	5.636904e+00
2.531491583516771e-03	7.498532e+00	5.636839e+00
2.541257208516771e-03	7.497480e+00	5.636752e+00
2.551022833516771e-03	7.496146e+00	5.636640e+00
2.560788458516771e-03	7.494530e+00	5.636505e+00
2.570554083516770e-03	7.492632e+00	5.636346e+00
2.580319708516770e-03	7.490451e+00	5.636163e+00
2.590085333516770e-03	7.487989e+00	5.635956e+00
2.599850958516770e-03	7.485245e+00	5.635724e+00
2.609616583516770e-03	7.482218e+00	5.635468e+00
2.619382208516769e-03	7.478910e+00	5.635188e+00
2.629147833516769e-03	7.475321e+00	5.634882e+00
2.638913458516769e-03	7.471450e+00	5.634551e+00
2.648679083516769e-03	7.467298e+00	5.634195e+00
2.658444708516769e-03	7.462864e+00	5.633813e+00
2.668210333516768e-03	7.458150e+00	5.633405e+00
2.677975958516768e-03	7.453155e+00	5.632971e+00
2.687741583516768e-03	7.447879e+00	5.632510e+00
2.697507208516768e-03	7.442323e+00	5.632022e+00
2.707272833516767e-03	7.436487e+00	5.631507e+00
2.717038458516767e-03	7.430371e+00	5.630964e+00
2.726804083516767e-03	7.423975e+00	5.630393e+00
2.736569708516767e-03	7.417299e+00	5.629793e+00
2.746335333516767e-03	7.410345e+00	5.629164e+00
2.756100958516766e-03	7.403111e+00	5.628505e+00
2.765866583516766e-03	7.395598e+00	5.627816e+00
2.775632208516766e-03	7.387807e+00	5.627097e+00
2.785397833516766e-03	7.379738e+00	5.626346e+00
2.795163458516766e-03	7.371391e+00	5.625564e+00
2.804929083516765e-03	7.362767e+00	5.624749e+00
2.814694708516765e-03	7.353865e+00	5.623900e+00
2.824460333516765e-03	7.344687e+00	5.623019e+00
2.834225958516765e-03	7.335231e+00	5.622103e+00
2.843991583516765e-03	7.325500e+00	5.621152e+00
2.853757208516764e-03	7.315493e+00	5.620165e+00
2.863522833516764e-03	7.305211e+00	5.619142e+00
2.873288458516764e-03	7.294653e+00	5.618082e+00
2.883054083516764e-03	7.283821e+00	5.616984e+00
2.892819708516764e-03	7.272715e+00	5.615847e+00
2.902585333516763e-03	7.261334e+00	5.614670e+00
2.912350958516763e-03	7.249681e+00	5.613454e+00
2.922116583516763e-03	7.237754e+00	5.612196e+00
2.931882208516763e-03	7.225555e+00	5.610896e+00
2.941647833516762e-03	7.213084e+00	5.609553e+00
2.951413458516762e-03	7.200342e+00	5.608166e+00
2.961179083516762e-03	7.187328e+00	5.606735e+00
2.970944708516762e-03	7.174044e+00	5.605258e+00
2.980710333516762e-03	7.160489e+00	5.603734e+00
2.990475958516761e-03	7.146665e+00	5.602163e+00
3.000241583516761e-03	7.132572e+00	5.600544e+00
3.010007208516761e-03	7.118210e+00	5.598875e+00
3.019772833516761e-03	7.103581e+00	5.597156e+00
3.029538458516761e-03	7.088684e+00	5.595385e+00
3.039304083516760e-03	7.073520e+00	5.593562e+00
3.049069708516760e-03	7.058090e+00	5.591684e+00
3.058835333516760e-03	7.042394e+00	5.589753e+00
3.068600958516760e-03	7.026433e+00	5.587766e+00
3.078366583516760e-03	7.010207e+00	5.585721e+00
3.088132208516759e-03	6.993717e+00	5.583619e+00
3.097897833516759e-03	6.976964e+00	5.581458e+00
3.107663458516759e-03	6.959949e+00	5.579236e+00
3.117429083516759e-03	6.942671e+00	5.576952e+00
3.127194708516759e-03	6.925132e+00	5.574605e+00
3.136960333516758e-03	6.907332e+00	5.572195e+00
3.146725958516758e-03	6.889273e+00	5.569718e+00
3.156491583516758e-03	6.870954e+00	5.567174e+00
3.166257208516758e-03	6.852376e+00	5.564562e+00
3.176022833516757e-03	6.833539e+00	5.561879e+00
3.185788458516757e-03	6.814446e+00	5.559125e+00
3.195554083516757e-03	6.795097e+00	5.556297e+00
3.205319708516757e-03	6.775491e+00	5.553395e+00
3.215085333516757e-03	6.755631e+00	5.550415e+00
3.224850958516756e-03	6.735516e+00	5.547356e+00
3.234616583516756e-03	6.715147e+00	5.544216e+00
3.244382208516756e-03	6.694526e+00	5.540993e+00
3.254147833516756e-03	6.673653e+00	5.537685e+00
3.263913458516756e-03	6.652528e+00	5.534289e+00
3.273679083516755e-03	6.631153e+00	5.530803e+00
3.283444708516755e-03	6.609528e+00	5.527225e+00
3.293210333516755e-03	6.587654e+00	5.523550e+00
3.302975958516755e-03	6.565533e+00	5.519777e+00
3.312741583516755e-03	6.543164e+00	5.515903e+00
3.322507208516754e-03	6.520548e+00	5.511923e+00
3.332272833516754e-03	6.497688e+00	5.507836e+00
3.342038458516754e-03	6.474583e+00	5.503637e+00
3.351804083516754e-03	6.451233e+00	5.499322e+00
3.361569708516754e-03	6.427641e+00	5.494888e+00
3.371335333516753e-03	6.403808e+00	5.490329e+00
3.381100958516753e-03	6.379733e+00	5.485642e+00
3.390866583516753e-03	6.355417e+00	5.480822e+00
3.400632208516753e-03	6.330863e+00	5.475864e+00
3.410397833516752e-03	6.306070e+00	5.470761e+00
3.420163458516752e-03	6.281039e+00	5.465510e+00
3.429929083516752e-03	6.255773e+00	5.460103e+00
3.439694708516752e-03	6.230270e+00	5.454534e+00
3.449460333516752e-03	6.204534e+00	5.448796e+00
3.459225958516751e-03	6.178563e+00	5.442882e+00
3.468991583516751e-03	6.152360e+00	5.436785e+00
3.478757208516751e-03	6.125925e+00	5.430496e+00
3.488522833516751e-03	6.099260e+00	5.424006e+00
3.498288458516751e-03	6.072365e+00	5.417308e+00
3.508054083516750e-03	6.045241e+00	5.410390e+00
3.517819708516750e-03	6.017890e+00	5.403242e+00
3.527585333516750e-03	5.990312e+00	5.395854e+00
3.537350958516750e-03	5.962509e+00	5.388213e+00
3.547116583516750e-03	5.934481e+00	5.380308e+00
3.556882208516749e-03	5.906229e+00	5.372124e+00
3.566647833516749e-03	5.877756e+00	5.363648e+00
3.576413458516749e-03	5.849061e+00	5.354866e+00
3.586179083516749e-03	5.820146e+00	5.345760e+00
3.595944708516749e-03	5.791012e+00	5.336314e+00
3.605710333516748e-03	5.761660e+00	5.326510e+00
3.615475958516748e-03	5.732090e+00	5.316330e+00
3.625241583516748e-03	5.702305e+00	5.305753e+00
3.635007208516748e-03	5.672306e+00	5.294758e+00
3.644772833516747e-03	5.642092e+00	5.283322e+00
3.654538458516747e-03	5.611667e+00	5.271423e+00
3.664304083516747e-03	5.581030e+00	5.259036e+00
3.674069708516747e-03	5.550183e+00	5.246134e+00
3.683835333516747e-03	5.519126e+00	5.232691e+00
3.693600958516746e-03	5.487863e+00	5.218679e+00
3.703366583516746e-03	5.456392e+00	5.204071e+00
3.713132208516746e-03	5.424716e+00	5.188837e+00
3.722897833516746e-03	5.392837e+00	5.172947e+00
3.732663458516746e-03	5.360753e+00	5.156373e+00
3.742429083516745e-03	5.328468e+00	5.139085e+00
3.752194708516745e-03	5.295983e+00	5.121054e+00
3.761960333516745e-03	5.263298e+00	5.102254e+00
3.771725958516745e-03	5.230414e+00	5.082660e+00
3.781491583516745e-03	5.197334e+00	5.062249e+00
3.791257208516744e-03	5.164059e+00	5.041000e+00
3.801022833516744e-03	5.130589e+00	5.018899e+00
3.810788458516744e-03	5.096925e+00	4.995933e+00
3.820554083516744e-03	5.063070e+00	4.972095e+00
3.830319708516744e-03	5.029024e+00	4.947383e+00
3.840085333516743e-03	4.994789e+00	4.921802e+00
3.849850958516743e-03	4.960366e+00	4.895361e+00
3.859616583516743e-03	4.925756e+00	4.868075e+00
