time	V(vi)	V(vo)
0.000000000000000e+00	0.000000e+00	0.000000e+00
9.999999717180685e-10	1.570796e-06	4.634219e-23
1.008018525791603e-09	1.583392e-06	4.671676e-23
1.024055633938672e-09	1.608583e-06	4.747188e-23
1.056129850232810e-09	1.658965e-06	4.901786e-23
1.120278282821086e-09	1.759729e-06	5.225285e-23
1.248575147997638e-09	1.961257e-06	5.929491e-23
1.505168878350742e-09	2.364314e-06	7.566741e-23
2.018356339056949e-09	3.170427e-06	1.175658e-22
3.044731260469363e-09	4.782652e-06	2.379756e-22
5.097481103294193e-09	8.007105e-06	6.252446e-22
9.202980788943851e-09	1.445601e-05	1.985555e-21
1.741398016024317e-08	2.735382e-05	7.049059e-21
3.383597890284180e-08	5.314943e-05	2.654597e-20
6.667997638803907e-08	1.047407e-04	1.030064e-19
1.323679713584336e-07	2.079231e-04	4.056901e-19
2.020212784637640e-07	3.173343e-04	9.445858e-19
2.947274970689366e-07	4.629569e-04	2.009353e-18
4.183990238391050e-07	6.572196e-04	4.046603e-18
6.545428874436232e-07	1.028154e-03	9.889852e-18
1.105447118446010e-06	1.736432e-03	2.813516e-17
2.007255580450783e-06	3.152989e-03	9.228223e-17
3.810872504460330e-06	5.986099e-03	3.293004e-16
7.418106352479423e-06	1.165229e-02	1.224637e-15
1.463257404851761e-05	2.298447e-02	4.613245e-15
2.906150944059398e-05	4.564717e-02	1.732407e-14
5.791938022474673e-05	9.095947e-02	6.478500e-14
1.156351217930522e-04	1.814795e-01	2.441518e-13
1.535938947937675e-04	2.408904e-01	4.227813e-13
1.843031991936053e-04	2.888562e-01	6.023767e-13
2.073149616628715e-04	3.247294e-01	7.574787e-13
2.274872344556317e-04	3.561206e-01	9.078762e-13
2.464768012122977e-04	3.856191e-01	1.061756e-12
2.650000881693728e-04	4.143404e-01	1.223328e-12
2.843133695182451e-04	4.442269e-01	1.403832e-12
3.026228281372371e-04	4.724996e-01	1.586279e-12
3.212530401303505e-04	5.012034e-01	1.783208e-12
3.394156396954277e-04	5.291207e-01	1.986125e-12
3.577743772402675e-04	5.572694e-01	2.202161e-12
3.759746311719416e-04	5.851020e-01	2.427127e-12
3.943533635019336e-04	6.131298e-01	2.665127e-12
4.127889123697577e-04	6.411621e-01	2.914664e-12
4.315505062364739e-04	6.696019e-01	3.179473e-12
4.508111736299255e-04	6.987013e-01	3.462244e-12
4.711975307980127e-04	7.293898e-01	3.772625e-12
4.940111352521020e-04	7.635902e-01	4.131455e-12
5.229388029884180e-04	8.067297e-01	4.599205e-12
5.536216339317140e-04	8.521951e-01	5.104847e-12
5.843912440768866e-04	8.974711e-01	5.616593e-12
6.244463477024777e-04	9.559050e-01	6.285164e-12
6.733728607703530e-04	1.026456e+00	7.102613e-12
7.286011196796810e-04	1.104925e+00	8.025030e-12
8.170063124801950e-04	1.227724e+00	9.499970e-12
9.779721852476845e-04	1.441330e+00	1.217940e-11
1.299903930782663e-03	1.822318e+00	1.750757e-11
1.788185180782663e-03	2.254103e+00	2.547024e-11
2.276466430782663e-03	2.475383e+00	3.317854e-11
2.566455409463868e-03	2.497821e+00	3.753642e-11
2.758198442442025e-03	2.467174e+00	4.024816e-11
2.968539879331247e-03	2.392447e+00	4.294711e-11
3.054842545180794e-03	2.349614e+00	4.394266e-11
3.126882279600451e-03	2.308566e+00	4.470915e-11
3.198857399250228e-03	2.262831e+00	4.540843e-11
3.298667875744588e-03	2.191774e+00	4.625410e-11
3.444444008360420e-03	2.072594e+00	4.719416e-11
3.704930399210684e-03	1.817111e+00	4.780313e-11
3.884236774803333e-03	1.612560e+00	-3.559638e-11
3.980205442455749e-03	1.494504e+00	-5.935624e-09
4.030805869729479e-03	1.430042e+00	-4.793204e-08
4.059297729660660e-03	1.393105e+00	-1.615035e-07
4.078684334446765e-03	1.367716e+00	-3.903586e-07
4.094096109811575e-03	1.347388e+00	-8.131504e-07
4.108493055783927e-03	1.328284e+00	-1.652301e-06
4.123700208590531e-03	1.307987e+00	-3.566527e-06
4.137948624900701e-03	1.288861e+00	-7.377208e-06
4.152644708616549e-03	1.269026e+00	-1.576096e-05
4.166810520245258e-03	1.249804e+00	-3.286274e-05
4.181199016576559e-03	1.230179e+00	-6.968755e-05
4.195298931879777e-03	1.210850e+00	-1.457832e-04
4.209531222663335e-03	1.191243e+00	-3.074529e-04
4.223666995690069e-03	1.171675e+00	-6.424727e-04
4.238029270139172e-03	1.151698e+00	-1.343213e-03
4.252703723707448e-03	1.131191e+00	-2.776574e-03
4.268326912014900e-03	1.109251e+00	-5.681409e-03
4.286133665166069e-03	1.084116e+00	-1.147598e-02
4.310438843018726e-03	1.049589e+00	-2.374822e-02
4.345411153364913e-03	9.994809e-01	-4.665853e-02
4.383191510188691e-03	9.448082e-01	-7.373247e-02
4.435088969994368e-03	8.688448e-01	-1.115504e-01
4.530207467676930e-03	7.272786e-01	-1.820553e-01
4.626686609046564e-03	5.810370e-01	-2.549545e-01
4.690948167426216e-03	4.824124e-01	-3.041465e-01
4.727286391281420e-03	4.262843e-01	-3.321522e-01
4.756754298405219e-03	3.806037e-01	-3.549497e-01
4.770289508467512e-03	3.595769e-01	-3.654450e-01
4.791357676706889e-03	3.267967e-01	-3.818087e-01
4.811288920843764e-03	2.957326e-01	-3.973178e-01
4.834554995071961e-03	2.594126e-01	-4.154535e-01
4.865163089182085e-03	2.115480e-01	-4.393580e-01
4.900638787124833e-03	1.559749e-01	-4.671184e-01
4.955353847691920e-03	7.012081e-02	-5.100168e-01
5.000001000000000e-03	-1.570796e-06	-5.450673e-01
5.000002000000001e-03	-3.141593e-06	-5.450680e-01
5.000018000000006e-03	-2.827433e-05	-5.450806e-01
5.000022276967934e-03	-3.499258e-05	-5.450839e-01
5.000026372869345e-03	-4.142641e-05	-5.450872e-01
5.000034564672165e-03	-5.429406e-05	-5.450936e-01
5.000050948277806e-03	-8.002937e-05	-5.451065e-01
5.000083715489088e-03	-1.315000e-04	-5.451322e-01
5.000149249911651e-03	-2.344412e-04	-5.451837e-01
5.000242213374264e-03	-3.804679e-04	-5.452567e-01
5.000353791561160e-03	-5.557345e-04	-5.453443e-01
5.000543550226627e-03	-8.538067e-04	-5.454933e-01
5.000893012358396e-03	-1.402740e-03	-5.457678e-01
5.001591936621934e-03	-2.500608e-03	-5.463166e-01
5.002989785149010e-03	-4.696341e-03	-5.474144e-01
5.005785482203163e-03	-9.087794e-03	-5.496098e-01
5.011376876311469e-03	-1.787060e-02	-5.540009e-01
5.022559664528081e-03	-3.543545e-02	-5.627828e-01
5.044925240961304e-03	-7.055903e-02	-5.803452e-01
5.089656393827751e-03	-1.407575e-01	-6.154523e-01
5.179118699560645e-03	-2.807654e-01	-6.855003e-01
5.231794532182950e-03	-3.628162e-01	-7.265767e-01
5.267072037895331e-03	-4.175497e-01	-7.539827e-01
5.297009450418513e-03	-4.638381e-01	-7.771655e-01
5.328066242265637e-03	-5.116836e-01	-8.011329e-01
5.368737963822814e-03	-5.740443e-01	-8.323790e-01
5.434489357364380e-03	-6.740484e-01	-8.825049e-01
5.503798703433575e-03	-7.782152e-01	-9.347457e-01
5.601115002855653e-03	-9.219396e-01	-1.006870e+00
5.769009529413873e-03	-1.161500e+00	-1.127225e+00
6.056416438892967e-03	-1.540219e+00	-1.317977e+00
6.501074772289474e-03	-2.023534e+00	-1.563136e+00
6.989356022289474e-03	-2.372422e+00	-1.744865e+00
7.454726542401330e-03	-2.498989e+00	-1.824656e+00
7.633168858555541e-03	-2.491254e+00	-1.833689e+00
7.709986139550982e-03	-2.478272e+00	-1.835276e+00
7.768441743809371e-03	-2.464524e+00	-1.835922e+00
7.830759907895203e-03	-2.446206e+00	-1.836275e+00
7.903462093552955e-03	-2.420100e+00	-1.836441e+00
7.973038704059533e-03	-2.390387e+00	-1.836478e+00
8.056527876749448e-03	-2.348709e+00	-1.836468e+00
8.156165549386215e-03	-2.290523e+00	-1.836434e+00
8.308207587998405e-03	-2.184527e+00	-1.836375e+00
8.556591281458512e-03	-1.969025e+00	-1.836278e+00
9.044872531458512e-03	-1.411863e+00	-1.836087e+00
9.533153781458512e-03	-7.228495e-01	-1.835897e+00
9.732937969680285e-03	-4.175342e-01	-1.835819e+00
9.793258209771222e-03	-3.238367e-01	-1.835795e+00
9.824130482447679e-03	-2.756933e-01	-1.835783e+00
9.854822323660856e-03	-2.277284e-01	-1.835771e+00
9.892839071513101e-03	-1.682008e-01	-1.835756e+00
9.949637804595958e-03	-7.909555e-02	-1.835734e+00
1.000000000000000e-02	0.000000e+00	-1.835714e+00
1.000000100000000e-02	1.570796e-06	-1.835714e+00
1.000001699999999e-02	2.670354e-05	-1.835714e+00
1.000001836218775e-02	2.884326e-05	-1.835714e+00
1.000002068887251e-02	3.249801e-05	-1.835714e+00
1.000002534224202e-02	3.980750e-05	-1.835714e+00
1.000003464898105e-02	5.442649e-05	-1.835714e+00
1.000005326245911e-02	8.366448e-05	-1.835714e+00
1.000009048941523e-02	1.421404e-04	-1.835714e+00
1.000014273167250e-02	2.242024e-04	-1.835714e+00
1.000020349291899e-02	3.196459e-04	-1.835714e+00
1.000027702358441e-02	4.351476e-04	-1.835714e+00
1.000037518977780e-02	5.893467e-04	-1.835714e+00
1.000052521502387e-02	8.250058e-04	-1.835714e+00
1.000078762635655e-02	1.237201e-03	-1.835714e+00
1.000131244902192e-02	2.061590e-03	-1.835714e+00
1.000236209435265e-02	3.710368e-03	-1.835713e+00
1.000446138501411e-02	7.007918e-03	-1.835712e+00
1.000865996633703e-02	1.360298e-02	-1.835711e+00
1.001705712898287e-02	2.679276e-02	-1.835708e+00
1.003385145427456e-02	5.316973e-02	-1.835701e+00
1.006744010485793e-02	1.059030e-01	-1.835688e+00
1.013461740602467e-02	2.112045e-01	-1.835662e+00
1.022224564984193e-02	3.479692e-01	-1.835627e+00
1.026399022776541e-02	4.127760e-01	-1.835611e+00
1.030001137541275e-02	4.684708e-01	-1.835597e+00
1.033464491510892e-02	5.217943e-01	-1.835584e+00
1.036201132688430e-02	5.637553e-01	-1.835573e+00
1.038170811154601e-02	5.938541e-01	-1.835565e+00
1.040258723096373e-02	6.256602e-01	-1.835557e+00
1.042171933883127e-02	6.547107e-01	-1.835549e+00
1.044148667372577e-02	6.846261e-01	-1.835542e+00
1.046235092798906e-02	7.160870e-01	-1.835534e+00
1.048504430894381e-02	7.501662e-01	-1.835525e+00
1.051119762473159e-02	7.892516e-01	-1.835515e+00
1.053802110498343e-02	8.291170e-01	-1.835504e+00
1.056774862987650e-02	8.730229e-01	-1.835492e+00
1.060802888527763e-02	9.320257e-01	-1.835477e+00
1.065154075182962e-02	9.950904e-01	-1.835460e+00
1.070287744021845e-02	1.068536e+00	-1.835440e+00
1.076928597054520e-02	1.161885e+00	-1.835414e+00
1.089614785968945e-02	1.334454e+00	-1.835364e+00
1.114987163797796e-02	1.653128e+00	-1.835265e+00
1.163815288797796e-02	2.142323e+00	-1.835075e+00
1.212643413797796e-02	2.431450e+00	-1.834884e+00
1.250900320904910e-02	2.499960e+00	-1.834735e+00
1.266466006196028e-02	2.486632e+00	-1.834674e+00
1.286764070874745e-02	2.433597e+00	-1.834594e+00
1.296106972086408e-02	2.395825e+00	-1.834558e+00
1.300803130807221e-02	2.373713e+00	-1.834540e+00
1.304912991038584e-02	2.352664e+00	-1.834524e+00
1.308825967957320e-02	2.331167e+00	-1.834508e+00
1.312492187389485e-02	2.309746e+00	-1.834494e+00
1.316443153579946e-02	2.285290e+00	-1.834479e+00
1.320457667982709e-02	2.258997e+00	-1.834463e+00
1.324614844666249e-02	2.230256e+00	-1.834447e+00
1.329838013662203e-02	2.191991e+00	-1.834426e+00
1.336291061421401e-02	2.141461e+00	-1.834401e+00
1.345450080002966e-02	2.063719e+00	-1.834365e+00
1.359951922960091e-02	1.926764e+00	-1.834309e+00
1.388955608874340e-02	1.606166e+00	-1.834196e+00
1.437783733874340e-02	9.525895e-01	-1.834005e+00
1.460122277699267e-02	6.198642e-01	-1.833918e+00
1.472841266814316e-02	4.245410e-01	-1.833868e+00
1.476181739918961e-02	3.727414e-01	-1.833855e+00
1.477881134536210e-02	3.463250e-01	-1.833849e+00
1.479589283160372e-02	3.197327e-01	-1.833842e+00
1.481563854259904e-02	2.889471e-01	-1.833834e+00
1.483946160609158e-02	2.517457e-01	-1.833825e+00
1.486643455366708e-02	2.095579e-01	-1.833815e+00
1.492038044881807e-02	1.250139e-01	-1.833793e+00
1.497798405799267e-02	3.458146e-02	-1.833771e+00
1.500000100000000e-02	-1.570796e-06	-1.833762e+00
1.500000200000000e-02	-3.141593e-06	-1.833762e+00
1.500001799999999e-02	-2.827433e-05	-1.833762e+00
1.500002224955354e-02	-3.494952e-05	-1.833762e+00
1.500002631966528e-02	-4.134284e-05	-1.833762e+00
1.500003445988875e-02	-5.412947e-05	-1.833762e+00
1.500005074033570e-02	-7.970273e-05	-1.833762e+00
1.500008330122959e-02	-1.308493e-04	-1.833762e+00
1.500014783235819e-02	-2.322145e-04	-1.833762e+00
1.500022860926046e-02	-3.590986e-04	-1.833762e+00
1.500034279007492e-02	-5.384534e-04	-1.833762e+00
1.500050677115933e-02	-7.960342e-04	-1.833762e+00
1.500081234828509e-02	-1.276034e-03	-1.833762e+00
1.500142350253659e-02	-2.236032e-03	-1.833762e+00
1.500264581103959e-02	-4.156028e-03	-1.833761e+00
1.500509042804559e-02	-7.996012e-03	-1.833760e+00
1.500997966205760e-02	-1.567591e-02	-1.833758e+00
1.501975813008161e-02	-3.103520e-02	-1.833755e+00
1.503931506612964e-02	-6.174968e-02	-1.833747e+00
1.507842893822569e-02	-1.231460e-01	-1.833732e+00
1.515665668241780e-02	-2.456786e-01	-1.833701e+00
1.522468294011971e-02	-3.517600e-01	-1.833675e+00
1.526445165315093e-02	-4.134909e-01	-1.833659e+00
1.529681273764181e-02	-4.635345e-01	-1.833647e+00
1.532890109637689e-02	-5.129672e-01	-1.833636e+00
1.536906701308810e-02	-5.745474e-01	-1.833645e+00
1.543486171329604e-02	-6.746116e-01	-1.835233e+00
1.550401449384684e-02	-7.785373e-01	-1.855724e+00
1.560143827309663e-02	-9.224116e-01	-1.922313e+00
1.577268228578832e-02	-1.166606e+00	-2.047592e+00
1.596918136164798e-02	-1.430026e+00	-2.178315e+00
1.636217951336729e-02	-1.887875e+00	-2.411346e+00
1.685046076336729e-02	-2.294674e+00	-2.619037e+00
1.733874201336729e-02	-2.487179e+00	-2.730912e+00
1.758989012229992e-02	-2.496014e+00	-2.748610e+00
1.779633972880633e-02	-2.456789e+00	-2.752942e+00
1.813146146968894e-02	-2.305796e+00	-2.753725e+00
1.861974271968894e-02	-1.906368e+00	-2.753443e+00
1.910802396968894e-02	-1.328908e+00	-2.753157e+00
1.959630521968894e-02	-6.273444e-01	-2.752871e+00
1.976619068610235e-02	-3.659472e-01	-2.752771e+00
1.980113888801960e-02	-3.115582e-01	-2.752751e+00
1.981579174440965e-02	-2.887081e-01	-2.752742e+00
1.983814793656442e-02	-2.537986e-01	-2.752729e+00
1.987241276227187e-02	-2.001990e-01	-2.752709e+00
1.990636621909525e-02	-1.469948e-01	-2.752689e+00
1.997427313274202e-02	-4.040991e-02	-2.752649e+00
2.000000000000000e-02	0.000000e+00	-2.752634e+00
2.000000100000000e-02	1.570796e-06	-2.752634e+00
2.000001699999999e-02	2.670354e-05	-2.752634e+00
2.000002342169726e-02	3.679072e-05	-2.752634e+00
2.000002953682594e-02	4.639634e-05	-2.752634e+00
2.000004176708330e-02	6.560758e-05	-2.752634e+00
2.000006622759800e-02	1.040301e-04	-2.752634e+00
2.000011514862742e-02	1.808750e-04	-2.752634e+00
2.000020493232099e-02	3.219069e-04	-2.752634e+00
2.000032058875947e-02	5.035796e-04	-2.752634e+00
2.000049067536873e-02	7.707510e-04	-2.752634e+00
2.000077372257977e-02	1.215361e-03	-2.752634e+00
2.000133981700187e-02	2.104579e-03	-2.752634e+00
2.000247200584607e-02	3.883016e-03	-2.752633e+00
2.000473638353446e-02	7.439883e-03	-2.752631e+00
2.000926513891124e-02	1.455356e-02	-2.752629e+00
2.001832264966480e-02	2.878051e-02	-2.752624e+00
2.003643767117192e-02	5.723116e-02	-2.752613e+00
2.007266771418617e-02	1.141065e-01	-2.752592e+00
2.014512780021467e-02	2.276504e-01	-2.752549e+00
2.021213596888940e-02	3.322366e-01	-2.752510e+00
2.025276646384149e-02	3.953776e-01	-2.752486e+00
2.028493293005968e-02	4.451846e-01	-2.752467e+00
2.031686952683355e-02	4.944557e-01	-2.752449e+00
2.035079569015906e-02	5.465778e-01	-2.752429e+00
2.041864801681009e-02	6.500534e-01	-2.752389e+00
2.048629393901637e-02	7.520384e-01	-2.752349e+00
2.057696650018052e-02	8.865760e-01	-2.752296e+00
2.071237140365695e-02	1.081999e+00	-2.752217e+00
2.079321992714265e-02	1.195040e+00	-2.752170e+00
2.088891511734245e-02	1.324833e+00	-2.752114e+00
2.092593409502841e-02	1.373783e+00	-2.752092e+00
2.095898141520467e-02	1.416854e+00	-2.752073e+00
2.098247672452922e-02	1.447106e+00	-2.752059e+00
2.100744935279997e-02	1.478914e+00	-2.752044e+00
2.103026786221072e-02	1.507660e+00	-2.752031e+00
2.105337622808158e-02	1.536455e+00	-2.752017e+00
2.107672585272122e-02	1.565221e+00	-2.752004e+00
2.110093374561110e-02	1.594690e+00	-2.751990e+00
2.112713589789643e-02	1.626170e+00	-2.751974e+00
2.115851172486729e-02	1.663285e+00	-2.751956e+00
2.119284955518512e-02	1.703163e+00	-2.751936e+00
2.122755572543284e-02	1.742663e+00	-2.751915e+00
2.126443740267180e-02	1.783730e+00	-2.751894e+00
2.131879022400181e-02	1.842499e+00	-2.751862e+00
2.137773855774376e-02	1.903806e+00	-2.751827e+00
2.144130084721797e-02	1.966983e+00	-2.751790e+00
2.153362165926037e-02	2.053132e+00	-2.751736e+00
2.171642452873436e-02	2.203079e+00	-2.751629e+00
2.208203026768233e-02	2.414284e+00	-2.751415e+00
2.249164006834490e-02	2.499965e+00	-2.751175e+00
2.264689274416495e-02	2.489359e+00	-2.751085e+00
2.282924481213241e-02	2.446696e+00	-2.750978e+00
2.302727241008931e-02	2.364055e+00	-2.750862e+00
2.311442104635320e-02	2.316007e+00	-2.750811e+00
2.320142857619734e-02	2.261111e+00	-2.750760e+00
2.330560900088123e-02	2.186509e+00	-2.750699e+00
2.347731266543560e-02	2.043283e+00	-2.750598e+00
2.380799827703906e-02	1.702188e+00	-2.750405e+00
2.429627952703906e-02	1.069733e+00	-2.750119e+00
2.458697430026055e-02	6.415216e-01	-2.749949e+00
2.473401127615047e-02	4.158718e-01	-2.749863e+00
2.478223952359261e-02	3.409911e-01	-2.749835e+00
2.480493233760446e-02	3.056450e-01	-2.749822e+00
2.482773349516051e-02	2.700675e-01	-2.749808e+00
2.485530271373443e-02	2.269770e-01	-2.749792e+00
2.491044115088226e-02	1.406045e-01	-2.749760e+00
2.498667781113846e-02	2.092620e-02	-2.749715e+00
2.500000100000000e-02	-1.570796e-06	-2.749707e+00
2.500000200000000e-02	-3.141593e-06	-2.749707e+00
2.500001799999999e-02	-2.827433e-05	-2.749707e+00
2.500002213275762e-02	-3.476605e-05	-2.749707e+00
2.500002609056175e-02	-4.098296e-05	-2.749707e+00
2.500003400616999e-02	-5.341677e-05	-2.749707e+00
2.500004983738648e-02	-7.828439e-05	-2.749707e+00
2.500008149981946e-02	-1.280196e-04	-2.749707e+00
2.500014305691538e-02	-2.247133e-04	-2.749707e+00
2.500021553228023e-02	-3.385573e-04	-2.749707e+00
2.500031569400162e-02	-4.958910e-04	-2.749707e+00
2.500045473049910e-02	-7.142890e-04	-2.749707e+00
2.500070165926591e-02	-1.102164e-03	-2.749707e+00
2.500119551679952e-02	-1.877913e-03	-2.749707e+00
2.500218323186675e-02	-3.429411e-03	-2.749706e+00
2.500415866200121e-02	-6.532404e-03	-2.749705e+00
2.500810952227012e-02	-1.273835e-02	-2.749703e+00
2.501601124280794e-02	-2.514998e-02	-2.749698e+00
2.503181468388358e-02	-4.997106e-02	-2.749689e+00
2.506342156603487e-02	-9.959600e-02	-2.749670e+00
2.512663533033745e-02	-1.987085e-01	-2.749633e+00
2.521511638322986e-02	-3.368761e-01	-2.749582e+00
2.527155955049353e-02	-4.244980e-01	-2.749549e+00
2.530692426000176e-02	-4.791328e-01	-2.749528e+00
2.534337523663089e-02	-5.351979e-01	-2.749507e+00
2.539025081090184e-02	-6.068802e-01	-2.749479e+00
2.546265083602922e-02	-7.165384e-01	-2.749437e+00
2.553824181871492e-02	-8.294441e-01	-2.749393e+00
2.565549303760527e-02	-1.000783e+00	-2.749324e+00
2.587190833201482e-02	-1.302103e+00	-2.749197e+00
2.621159909338091e-02	-1.724604e+00	-2.795504e+00
2.669988034338091e-02	-2.190676e+00	-3.017457e+00
2.718816159338091e-02	-2.452166e+00	-3.182983e+00
2.753284419456534e-02	-2.499468e+00	-3.201221e+00
2.770347934591609e-02	-2.479596e+00	-3.208092e+00
2.798098117742339e-02	-2.386703e+00	-3.210384e+00
2.842861136882787e-02	-2.086399e+00	-3.210168e+00
2.891689261882787e-02	-1.573025e+00	-3.209835e+00
2.940517386882787e-02	-9.127501e-01	-3.209501e+00
2.963183396655456e-02	-5.731699e-01	-3.209347e+00
2.974465178060624e-02	-3.993815e-01	-3.209270e+00
2.979082189116666e-02	-3.276311e-01	-3.209238e+00
2.981243192357123e-02	-2.939497e-01	-3.209223e+00
2.983320784892921e-02	-2.615172e-01	-3.209209e+00
2.986833490652765e-02	-2.065832e-01	-3.209185e+00
2.992302118586810e-02	-1.208709e-01	-3.209148e+00
3.000000000000000e-02	0.000000e+00	-3.209095e+00
3.000000100000000e-02	1.570796e-06	-3.209095e+00
3.000001699999999e-02	2.670354e-05	-3.209095e+00
3.000002335647188e-02	3.668826e-05	-3.209095e+00
3.000002941005050e-02	4.619720e-05	-3.209095e+00
3.000004151720774e-02	6.521508e-05	-3.209095e+00
3.000006573152223e-02	1.032508e-04	-3.209095e+00
3.000011416015121e-02	1.793223e-04	-3.209095e+00
3.000021101740916e-02	3.314654e-04	-3.209095e+00
3.000035099677404e-02	5.513444e-04	-3.209095e+00
3.000056977308389e-02	8.949974e-04	-3.209095e+00
3.000096477185549e-02	1.515460e-03	-3.209095e+00
3.000175476939871e-02	2.756385e-03	-3.209094e+00
3.000333476448514e-02	5.238232e-03	-3.209093e+00
3.000649475465801e-02	1.020191e-02	-3.209091e+00
3.001281473500375e-02	2.012912e-02	-3.209086e+00
3.002545469569522e-02	3.998244e-02	-3.209078e+00
3.005073461707816e-02	7.968026e-02	-3.209060e+00
3.010129445984405e-02	1.590056e-01	-3.209026e+00
3.020241414537582e-02	3.170950e-01	-3.208957e+00
