time	V(vi)	V(vo)
0.000000000000000e+00	0.000000e+00	0.000000e+00
9.999999717180685e-10	2.000000e+00	1.999999e+00
1.008018525791603e-09	2.000000e+00	1.999999e+00
1.024055633938672e-09	2.000000e+00	1.999999e+00
1.056129850232810e-09	2.000000e+00	1.999999e+00
1.120278282821086e-09	2.000000e+00	1.999999e+00
1.248575147997638e-09	2.000000e+00	1.999999e+00
1.505168878350742e-09	2.000000e+00	1.999999e+00
2.018356339056949e-09	2.000000e+00	1.999999e+00
3.044731260469363e-09	2.000000e+00	1.999999e+00
5.097481103294193e-09	2.000000e+00	1.999999e+00
9.202980788943851e-09	2.000000e+00	1.999999e+00
1.741398016024317e-08	2.000000e+00	1.999999e+00
3.383597890284180e-08	2.000000e+00	1.999998e+00
6.667997638803907e-08	2.000000e+00	1.999998e+00
1.323679713584336e-07	2.000000e+00	1.999998e+00
2.020212784637640e-07	2.000000e+00	1.999998e+00
2.947274970689366e-07	2.000000e+00	1.999997e+00
4.183990238391050e-07	2.000000e+00	1.999997e+00
6.545428874436232e-07	2.000000e+00	1.999996e+00
1.105447118446010e-06	2.000000e+00	1.999994e+00
2.007255580450783e-06	2.000000e+00	1.999990e+00
3.810872504460330e-06	2.000000e+00	1.999982e+00
7.418106352479423e-06	2.000000e+00	1.999967e+00
1.463257404851761e-05	2.000000e+00	1.999936e+00
2.906150944059398e-05	2.000000e+00	1.999875e+00
5.791938022474673e-05	2.000000e+00	1.999752e+00
1.156351217930522e-04	2.000000e+00	1.999507e+00
1.535938947937675e-04	2.000000e+00	1.999345e+00
1.843031991936053e-04	2.000000e+00	1.999215e+00
2.073149616628715e-04	2.000000e+00	1.999117e+00
2.274872344556317e-04	2.000000e+00	1.999031e+00
2.464768012122977e-04	2.000000e+00	1.998950e+00
2.650000881693728e-04	2.000000e+00	1.998871e+00
2.843133695182451e-04	2.000000e+00	1.998789e+00
3.026228281372371e-04	2.000000e+00	1.998711e+00
3.212530401303505e-04	2.000000e+00	1.998632e+00
3.394156396954277e-04	2.000000e+00	1.998555e+00
3.577743772402675e-04	2.000000e+00	1.998477e+00
3.759746311719416e-04	2.000000e+00	1.998399e+00
3.943533635019336e-04	2.000000e+00	1.998321e+00
4.127889123697577e-04	2.000000e+00	1.998243e+00
4.315505062364739e-04	2.000000e+00	1.998163e+00
4.508111736299255e-04	2.000000e+00	1.998081e+00
4.711975307980127e-04	2.000000e+00	1.997995e+00
4.940111352521020e-04	2.000000e+00	1.997898e+00
5.229388029884180e-04	2.000000e+00	1.997775e+00
5.536216339317140e-04	2.000000e+00	1.997644e+00
5.843912440768866e-04	2.000000e+00	1.997513e+00
6.244463477024777e-04	2.000000e+00	1.997343e+00
6.733728607703530e-04	2.000000e+00	1.997135e+00
7.286011196796810e-04	2.000000e+00	1.996901e+00
8.170063124801950e-04	2.000000e+00	1.996525e+00
9.779721852476845e-04	2.000000e+00	1.995841e+00
1.299903930782663e-03	2.000000e+00	1.994475e+00
1.788185180782663e-03	2.000000e+00	1.992404e+00
2.276466430782663e-03	2.000000e+00	1.990335e+00
2.566455409463868e-03	2.000000e+00	1.989107e+00
2.758198442442025e-03	2.000000e+00	1.988296e+00
2.968539879331247e-03	2.000000e+00	1.987406e+00
3.054842545180794e-03	2.000000e+00	1.987041e+00
3.126882279600451e-03	2.000000e+00	1.986737e+00
3.198857399250228e-03	2.000000e+00	1.986433e+00
3.298667875744588e-03	2.000000e+00	1.986011e+00
3.444444008360420e-03	2.000000e+00	1.985395e+00
3.704930399210684e-03	2.000000e+00	1.984295e+00
3.884236774803333e-03	2.000000e+00	1.983538e+00
3.980205442455749e-03	2.000000e+00	1.983133e+00
4.030805869729479e-03	2.000000e+00	1.982920e+00
4.059297729660660e-03	2.000000e+00	1.982799e+00
4.078684334446765e-03	2.000000e+00	1.982718e+00
4.094096109811575e-03	2.000000e+00	1.982653e+00
4.108493055783927e-03	2.000000e+00	1.982592e+00
4.123700208590531e-03	2.000000e+00	1.982528e+00
4.137948624900701e-03	2.000000e+00	1.982468e+00
4.152644708616549e-03	2.000000e+00	1.982406e+00
4.166810520245258e-03	2.000000e+00	1.982346e+00
4.181199016576559e-03	2.000000e+00	1.982285e+00
4.195298931879777e-03	2.000000e+00	1.982226e+00
4.209531222663335e-03	2.000000e+00	1.982166e+00
4.223666995690069e-03	2.000000e+00	1.982106e+00
4.238029270139172e-03	2.000000e+00	1.982046e+00
4.252703723707448e-03	2.000000e+00	1.981984e+00
4.268326912014900e-03	2.000000e+00	1.981918e+00
4.286133665166069e-03	2.000000e+00	1.981843e+00
4.310438843018726e-03	2.000000e+00	1.981740e+00
4.345411153364913e-03	2.000000e+00	1.981593e+00
4.383191510188691e-03	2.000000e+00	1.981434e+00
4.435088969994368e-03	2.000000e+00	1.981215e+00
4.530207467676930e-03	2.000000e+00	1.980814e+00
4.626686609046564e-03	2.000000e+00	1.980407e+00
4.690948167426216e-03	2.000000e+00	1.980136e+00
4.727286391281420e-03	2.000000e+00	1.979983e+00
4.756754298405219e-03	2.000000e+00	1.979859e+00
4.770289508467512e-03	2.000000e+00	1.979802e+00
4.791357676706889e-03	2.000000e+00	1.979713e+00
4.811288920843764e-03	2.000000e+00	1.979630e+00
4.834554995071961e-03	2.000000e+00	1.979532e+00
4.865163089182085e-03	2.000000e+00	1.979403e+00
4.900638787124833e-03	2.000000e+00	1.979253e+00
4.955353847691920e-03	2.000000e+00	1.979023e+00
5.000001000000000e-03	2.000000e+00	1.978835e+00
5.000002000000001e-03	0.000000e+00	-2.116381e-02
5.000018000000006e-03	0.000000e+00	-2.116380e-02
5.000022276967934e-03	0.000000e+00	-2.116381e-02
5.000026372869345e-03	0.000000e+00	-2.116380e-02
5.000034564672165e-03	0.000000e+00	-2.116381e-02
5.000050948277806e-03	0.000000e+00	-2.116380e-02
5.000083715489088e-03	0.000000e+00	-2.116381e-02
5.000149249911651e-03	0.000000e+00	-2.116380e-02
5.000242213374264e-03	0.000000e+00	-2.116380e-02
5.000353791561160e-03	0.000000e+00	-2.116379e-02
5.000543550226627e-03	0.000000e+00	-2.116379e-02
5.000893012358396e-03	0.000000e+00	-2.116377e-02
5.001591936621934e-03	0.000000e+00	-2.116374e-02
5.002989785149010e-03	0.000000e+00	-2.116367e-02
5.005785482203163e-03	0.000000e+00	-2.116355e-02
5.011376876311469e-03	0.000000e+00	-2.116329e-02
5.022559664528081e-03	0.000000e+00	-2.116280e-02
5.044925240961304e-03	0.000000e+00	-2.116179e-02
5.089656393827751e-03	0.000000e+00	-2.115978e-02
5.179118699560645e-03	0.000000e+00	-2.115574e-02
5.231794532182950e-03	0.000000e+00	-2.115338e-02
5.267072037895331e-03	0.000000e+00	-2.115178e-02
5.297009450418513e-03	0.000000e+00	-2.115045e-02
5.328066242265637e-03	0.000000e+00	-2.114904e-02
5.368737963822814e-03	0.000000e+00	-2.114722e-02
5.434489357364380e-03	0.000000e+00	-2.114425e-02
5.503798703433575e-03	0.000000e+00	-2.114114e-02
5.601115002855653e-03	0.000000e+00	-2.113676e-02
5.769009529413873e-03	0.000000e+00	-2.112922e-02
6.056416438892967e-03	0.000000e+00	-2.111629e-02
6.501074772289474e-03	0.000000e+00	-2.109633e-02
6.989356022289474e-03	0.000000e+00	-2.107442e-02
7.454726542401330e-03	0.000000e+00	-2.105357e-02
7.633168858555541e-03	0.000000e+00	-2.104557e-02
7.709986139550982e-03	0.000000e+00	-2.104214e-02
7.768441743809371e-03	0.000000e+00	-2.103951e-02
7.830759907895203e-03	0.000000e+00	-2.103673e-02
7.903462093552955e-03	0.000000e+00	-2.103347e-02
7.973038704059533e-03	0.000000e+00	-2.103036e-02
8.056527876749448e-03	0.000000e+00	-2.102662e-02
8.156165549386215e-03	0.000000e+00	-2.102217e-02
8.308207587998405e-03	0.000000e+00	-2.101536e-02
8.556591281458512e-03	0.000000e+00	-2.100427e-02
9.044872531458512e-03	0.000000e+00	-2.098245e-02
9.533153781458512e-03	0.000000e+00	-2.096067e-02
9.732937969680285e-03	0.000000e+00	-2.095175e-02
9.793258209771222e-03	0.000000e+00	-2.094907e-02
9.824130482447679e-03	0.000000e+00	-2.094769e-02
9.854822323660856e-03	0.000000e+00	-2.094633e-02
9.892839071513101e-03	0.000000e+00	-2.094463e-02
9.949637804595958e-03	0.000000e+00	-2.094210e-02
1.000000000000000e-02	0.000000e+00	-2.093985e-02
1.000000100000000e-02	2.000000e+00	1.979059e+00
1.000001699999999e-02	2.000000e+00	1.979059e+00
1.000001836218775e-02	2.000000e+00	1.979059e+00
1.000002068887251e-02	2.000000e+00	1.979059e+00
1.000002534224202e-02	2.000000e+00	1.979059e+00
1.000003464898105e-02	2.000000e+00	1.979059e+00
1.000005326245911e-02	2.000000e+00	1.979059e+00
1.000009048941523e-02	2.000000e+00	1.979058e+00
1.000014273167250e-02	2.000000e+00	1.979058e+00
1.000020349291899e-02	2.000000e+00	1.979058e+00
1.000027702358441e-02	2.000000e+00	1.979058e+00
1.000037518977780e-02	2.000000e+00	1.979057e+00
1.000052521502387e-02	2.000000e+00	1.979057e+00
1.000078762635655e-02	2.000000e+00	1.979055e+00
1.000131244902192e-02	2.000000e+00	1.979053e+00
1.000236209435265e-02	2.000000e+00	1.979049e+00
1.000446138501411e-02	2.000000e+00	1.979040e+00
1.000865996633703e-02	2.000000e+00	1.979022e+00
1.001705712898287e-02	2.000000e+00	1.978987e+00
1.003385145427456e-02	2.000000e+00	1.978916e+00
1.006744010485793e-02	2.000000e+00	1.978775e+00
1.013461740602467e-02	2.000000e+00	1.978492e+00
1.022224564984193e-02	2.000000e+00	1.978123e+00
1.026399022776541e-02	2.000000e+00	1.977947e+00
1.030001137541275e-02	2.000000e+00	1.977796e+00
1.033464491510892e-02	2.000000e+00	1.977650e+00
1.036201132688430e-02	2.000000e+00	1.977535e+00
1.038170811154601e-02	2.000000e+00	1.977452e+00
1.040258723096373e-02	2.000000e+00	1.977364e+00
1.042171933883127e-02	2.000000e+00	1.977284e+00
1.044148667372577e-02	2.000000e+00	1.977201e+00
1.046235092798906e-02	2.000000e+00	1.977113e+00
1.048504430894381e-02	2.000000e+00	1.977017e+00
1.051119762473159e-02	2.000000e+00	1.976907e+00
1.053802110498343e-02	2.000000e+00	1.976795e+00
1.056774862987650e-02	2.000000e+00	1.976670e+00
1.060802888527763e-02	2.000000e+00	1.976500e+00
1.065154075182962e-02	2.000000e+00	1.976317e+00
1.070287744021845e-02	2.000000e+00	1.976101e+00
1.076928597054520e-02	2.000000e+00	1.975822e+00
1.089614785968945e-02	2.000000e+00	1.975289e+00
1.114987163797796e-02	2.000000e+00	1.974223e+00
1.163815288797796e-02	2.000000e+00	1.972173e+00
1.212643413797796e-02	2.000000e+00	1.970125e+00
1.250900320904910e-02	2.000000e+00	1.968522e+00
1.266466006196028e-02	2.000000e+00	1.967870e+00
1.286764070874745e-02	2.000000e+00	1.967021e+00
1.296106972086408e-02	2.000000e+00	1.966630e+00
1.300803130807221e-02	2.000000e+00	1.966433e+00
1.304912991038584e-02	2.000000e+00	1.966261e+00
1.308825967957320e-02	2.000000e+00	1.966097e+00
1.312492187389485e-02	2.000000e+00	1.965944e+00
1.316443153579946e-02	2.000000e+00	1.965779e+00
1.320457667982709e-02	2.000000e+00	1.965611e+00
1.324614844666249e-02	2.000000e+00	1.965437e+00
1.329838013662203e-02	2.000000e+00	1.965219e+00
1.336291061421401e-02	2.000000e+00	1.964949e+00
1.345450080002966e-02	2.000000e+00	1.964566e+00
1.359951922960091e-02	2.000000e+00	1.963960e+00
1.388955608874340e-02	2.000000e+00	1.962748e+00
1.437783733874340e-02	2.000000e+00	1.960710e+00
1.460122277699267e-02	2.000000e+00	1.959779e+00
1.472841266814316e-02	2.000000e+00	1.959248e+00
1.476181739918961e-02	2.000000e+00	1.959109e+00
1.477881134536210e-02	2.000000e+00	1.959038e+00
1.479589283160372e-02	2.000000e+00	1.958967e+00
1.481563854259904e-02	2.000000e+00	1.958885e+00
1.483946160609158e-02	2.000000e+00	1.958786e+00
1.486643455366708e-02	2.000000e+00	1.958673e+00
1.492038044881807e-02	2.000000e+00	1.958448e+00
1.497798405799267e-02	2.000000e+00	1.958208e+00
1.500000100000000e-02	2.000000e+00	1.958117e+00
1.500000200000000e-02	4.522159e-09	-4.188208e-02
1.500001799999999e-02	0.000000e+00	-4.188207e-02
1.500002224955354e-02	0.000000e+00	-4.188208e-02
1.500002631966528e-02	0.000000e+00	-4.188207e-02
1.500003445988875e-02	0.000000e+00	-4.188208e-02
1.500005074033570e-02	0.000000e+00	-4.188207e-02
1.500008330122959e-02	0.000000e+00	-4.188208e-02
1.500014783235819e-02	0.000000e+00	-4.188206e-02
1.500022860926046e-02	0.000000e+00	-4.188206e-02
1.500034279007492e-02	0.000000e+00	-4.188204e-02
1.500050677115933e-02	0.000000e+00	-4.188204e-02
1.500081234828509e-02	0.000000e+00	-4.188200e-02
1.500142350253659e-02	0.000000e+00	-4.188196e-02
1.500264581103959e-02	0.000000e+00	-4.188184e-02
1.500509042804559e-02	0.000000e+00	-4.188163e-02
1.500997966205760e-02	0.000000e+00	-4.188119e-02
1.501975813008161e-02	0.000000e+00	-4.188032e-02
1.503931506612964e-02	0.000000e+00	-4.187857e-02
1.507842893822569e-02	0.000000e+00	-4.187510e-02
1.515665668241780e-02	0.000000e+00	-4.186812e-02
1.522468294011971e-02	0.000000e+00	-4.186207e-02
1.526445165315093e-02	0.000000e+00	-4.185852e-02
1.529681273764181e-02	0.000000e+00	-4.185564e-02
1.532890109637689e-02	0.000000e+00	-4.185278e-02
1.536906701308810e-02	0.000000e+00	-4.184921e-02
1.543486171329604e-02	0.000000e+00	-4.184334e-02
1.550401449384684e-02	0.000000e+00	-4.183720e-02
1.560143827309663e-02	0.000000e+00	-4.182852e-02
1.577268228578832e-02	0.000000e+00	-4.181329e-02
1.596918136164798e-02	0.000000e+00	-4.179580e-02
1.636217951336729e-02	0.000000e+00	-4.176087e-02
1.685046076336729e-02	0.000000e+00	-4.171750e-02
1.733874201336729e-02	0.000000e+00	-4.167419e-02
1.758989012229992e-02	0.000000e+00	-4.165192e-02
1.779633972880633e-02	0.000000e+00	-4.163364e-02
1.813146146968894e-02	0.000000e+00	-4.160395e-02
1.861974271968894e-02	0.000000e+00	-4.156076e-02
1.910802396968894e-02	0.000000e+00	-4.151759e-02
1.959630521968894e-02	0.000000e+00	-4.147449e-02
1.976619068610235e-02	0.000000e+00	-4.145949e-02
1.980113888801960e-02	0.000000e+00	-4.145642e-02
1.981579174440965e-02	0.000000e+00	-4.145512e-02
1.983814793656442e-02	0.000000e+00	-4.145315e-02
1.987241276227187e-02	0.000000e+00	-4.145012e-02
1.990636621909525e-02	0.000000e+00	-4.144714e-02
1.997427313274202e-02	0.000000e+00	-4.144114e-02
2.000000000000000e-02	0.000000e+00	-4.143888e-02
2.000000100000000e-02	2.000000e+00	1.958560e+00
2.000001699999999e-02	2.000000e+00	1.958560e+00
2.000002342169726e-02	2.000000e+00	1.958560e+00
2.000002953682594e-02	2.000000e+00	1.958560e+00
2.000004176708330e-02	2.000000e+00	1.958560e+00
2.000006622759800e-02	2.000000e+00	1.958560e+00
2.000011514862742e-02	2.000000e+00	1.958559e+00
2.000020493232099e-02	2.000000e+00	1.958559e+00
2.000032058875947e-02	2.000000e+00	1.958558e+00
2.000049067536873e-02	2.000000e+00	1.958558e+00
2.000077372257977e-02	2.000000e+00	1.958557e+00
2.000133981700187e-02	2.000000e+00	1.958554e+00
2.000247200584607e-02	2.000000e+00	1.958549e+00
2.000473638353446e-02	2.000000e+00	1.958540e+00
2.000926513891124e-02	2.000000e+00	1.958521e+00
2.001832264966480e-02	2.000000e+00	1.958483e+00
2.003643767117192e-02	2.000000e+00	1.958408e+00
2.007266771418617e-02	2.000000e+00	1.958257e+00
2.014512780021467e-02	2.000000e+00	1.957955e+00
2.021213596888940e-02	2.000000e+00	1.957676e+00
2.025276646384149e-02	2.000000e+00	1.957507e+00
2.028493293005968e-02	2.000000e+00	1.957373e+00
2.031686952683355e-02	2.000000e+00	1.957240e+00
2.035079569015906e-02	2.000000e+00	1.957098e+00
2.041864801681009e-02	2.000000e+00	1.956816e+00
2.048629393901637e-02	2.000000e+00	1.956534e+00
2.057696650018052e-02	2.000000e+00	1.956157e+00
2.071237140365695e-02	2.000000e+00	1.955593e+00
2.079321992714265e-02	2.000000e+00	1.955257e+00
2.088891511734245e-02	2.000000e+00	1.954859e+00
2.092593409502841e-02	2.000000e+00	1.954705e+00
2.095898141520467e-02	2.000000e+00	1.954568e+00
2.098247672452922e-02	2.000000e+00	1.954470e+00
2.100744935279997e-02	2.000000e+00	1.954366e+00
2.103026786221072e-02	2.000000e+00	1.954271e+00
2.105337622808158e-02	2.000000e+00	1.954175e+00
2.107672585272122e-02	2.000000e+00	1.954078e+00
2.110093374561110e-02	2.000000e+00	1.953977e+00
2.112713589789643e-02	2.000000e+00	1.953868e+00
2.115851172486729e-02	2.000000e+00	1.953738e+00
2.119284955518512e-02	2.000000e+00	1.953595e+00
2.122755572543284e-02	2.000000e+00	1.953451e+00
2.126443740267180e-02	2.000000e+00	1.953298e+00
2.131879022400181e-02	2.000000e+00	1.953072e+00
2.137773855774376e-02	2.000000e+00	1.952827e+00
2.144130084721797e-02	2.000000e+00	1.952563e+00
2.153362165926037e-02	2.000000e+00	1.952179e+00
2.171642452873436e-02	2.000000e+00	1.951420e+00
2.208203026768233e-02	2.000000e+00	1.949903e+00
2.249164006834490e-02	2.000000e+00	1.948204e+00
2.264689274416495e-02	2.000000e+00	1.947561e+00
2.282924481213241e-02	2.000000e+00	1.946805e+00
2.302727241008931e-02	2.000000e+00	1.945985e+00
2.311442104635320e-02	2.000000e+00	1.945624e+00
2.320142857619734e-02	2.000000e+00	1.945264e+00
2.330560900088123e-02	2.000000e+00	1.944833e+00
2.347731266543560e-02	2.000000e+00	1.944123e+00
2.380799827703906e-02	2.000000e+00	1.942755e+00
2.429627952703906e-02	2.000000e+00	1.940738e+00
2.458697430026055e-02	2.000000e+00	1.939538e+00
2.473401127615047e-02	2.000000e+00	1.938931e+00
2.478223952359261e-02	2.000000e+00	1.938733e+00
2.480493233760446e-02	2.000000e+00	1.938639e+00
2.482773349516051e-02	2.000000e+00	1.938545e+00
2.485530271373443e-02	2.000000e+00	1.938431e+00
2.491044115088226e-02	2.000000e+00	1.938204e+00
2.498667781113846e-02	2.000000e+00	1.937889e+00
2.500000100000000e-02	2.000000e+00	1.937834e+00
2.500000200000000e-02	1.052712e-09	-6.216418e-02
2.500001799999999e-02	0.000000e+00	-6.216419e-02
2.500002213275762e-02	0.000000e+00	-6.216418e-02
2.500002609056175e-02	0.000000e+00	-6.216419e-02
2.500003400616999e-02	0.000000e+00	-6.216418e-02
2.500004983738648e-02	0.000000e+00	-6.216419e-02
2.500008149981946e-02	0.000000e+00	-6.216418e-02
2.500014305691538e-02	0.000000e+00	-6.216418e-02
2.500021553228023e-02	0.000000e+00	-6.216416e-02
2.500031569400162e-02	0.000000e+00	-6.216415e-02
2.500045473049910e-02	0.000000e+00	-6.216413e-02
2.500070165926591e-02	0.000000e+00	-6.216410e-02
2.500119551679952e-02	0.000000e+00	-6.216403e-02
2.500218323186675e-02	0.000000e+00	-6.216391e-02
2.500415866200121e-02	0.000000e+00	-6.216364e-02
2.500810952227012e-02	0.000000e+00	-6.216313e-02
2.501601124280794e-02	0.000000e+00	-6.216207e-02
2.503181468388358e-02	0.000000e+00	-6.215999e-02
2.506342156603487e-02	0.000000e+00	-6.215580e-02
2.512663533033745e-02	0.000000e+00	-6.214745e-02
2.521511638322986e-02	0.000000e+00	-6.213574e-02
2.527155955049353e-02	0.000000e+00	-6.212829e-02
2.530692426000176e-02	0.000000e+00	-6.212361e-02
2.534337523663089e-02	0.000000e+00	-6.211880e-02
2.539025081090184e-02	0.000000e+00	-6.211259e-02
2.546265083602922e-02	0.000000e+00	-6.210303e-02
2.553824181871492e-02	0.000000e+00	-6.209304e-02
2.565549303760527e-02	0.000000e+00	-6.207756e-02
2.587190833201482e-02	0.000000e+00	-6.204897e-02
2.621159909338091e-02	0.000000e+00	-6.200415e-02
2.669988034338091e-02	0.000000e+00	-6.193975e-02
2.718816159338091e-02	0.000000e+00	-6.187544e-02
2.753284419456534e-02	0.000000e+00	-6.183007e-02
2.770347934591609e-02	0.000000e+00	-6.180763e-02
2.798098117742339e-02	0.000000e+00	-6.177114e-02
2.842861136882787e-02	0.000000e+00	-6.171234e-02
2.891689261882787e-02	0.000000e+00	-6.164825e-02
2.940517386882787e-02	0.000000e+00	-6.158425e-02
2.963183396655456e-02	0.000000e+00	-6.155454e-02
2.974465178060624e-02	0.000000e+00	-6.153978e-02
2.979082189116666e-02	0.000000e+00	-6.153372e-02
2.981243192357123e-02	0.000000e+00	-6.153090e-02
2.983320784892921e-02	0.000000e+00	-6.152817e-02
2.986833490652765e-02	0.000000e+00	-6.152358e-02
2.992302118586810e-02	0.000000e+00	-6.151642e-02
3.000000000000000e-02	0.000000e+00	-6.150635e-02
3.000000100000000e-02	2.000000e+00	1.938492e+00
3.000001699999999e-02	2.000000e+00	1.938492e+00
3.000002335647188e-02	2.000000e+00	1.938492e+00
3.000002941005050e-02	2.000000e+00	1.938492e+00
3.000004151720774e-02	2.000000e+00	1.938492e+00
3.000006573152223e-02	2.000000e+00	1.938492e+00
3.000011416015121e-02	2.000000e+00	1.938492e+00
3.000021101740916e-02	2.000000e+00	1.938491e+00
3.000035099677404e-02	2.000000e+00	1.938491e+00
3.000056977308389e-02	2.000000e+00	1.938490e+00
3.000096477185549e-02	2.000000e+00	1.938488e+00
3.000175476939871e-02	2.000000e+00	1.938485e+00
3.000333476448514e-02	2.000000e+00	1.938478e+00
3.000649475465801e-02	2.000000e+00	1.938465e+00
3.001281473500375e-02	2.000000e+00	1.938439e+00
3.002545469569522e-02	2.000000e+00	1.938387e+00
3.005073461707816e-02	2.000000e+00	1.938283e+00
3.010129445984405e-02	2.000000e+00	1.938074e+00
3.020241414537582e-02	2.000000e+00	1.937658e+00
3.026912947525382e-02	2.000000e+00	1.937383e+00
3.030698777151298e-02	2.000000e+00	1.937227e+00
3.034548895458018e-02	2.000000e+00	1.937068e+00
3.039166204070829e-02	2.000000e+00	1.936878e+00
3.046509807347714e-02	2.000000e+00	1.936575e+00
3.054164458959134e-02	2.000000e+00	1.936260e+00
3.066053201995839e-02	2.000000e+00	1.935770e+00
